time	V(N002,N019)	V(N004,N019)	V(N005,N019)	V(N008,N002)	V(N009,N005)	V(N011,N004)	V(n001)	V(n002)	V(n004)	V(n005)	V(n015)	V(n016)	V(n017)	I(Battery)	I(Rmotor1)	I(Rmotor2)	I(Rmotor3)
0.000000000000000e+00	6.622000e-13	6.622000e-13	-1.324400e-12	0.000000e+00	0.000000e+00	0.000000e+00	2.220000e+01	2.363577e-12	2.363577e-12	3.769768e-13	0.000000e+00	1.500000e+01	0.000000e+00	-1.962235e-10	6.020000e-11	-1.204000e-10	6.020000e-11
5.000000000000000e-07	6.874501e-13	6.856737e-13	-1.357193e-12	4.463010e-15	-1.599659e-15	2.686653e-15	2.220000e+01	2.420286e-12	2.418510e-12	3.756436e-13	1.805847e-15	1.500000e+01	1.766057e-15	-1.771241e-10	6.020031e-11	-1.204006e-10	6.020029e-11
5.002810123148246e-07	-1.526292e-06	8.522393e-07	6.740533e-07	1.977423e-02	3.715434e-09	2.904400e-09	2.220000e+01	-2.188199e-06	1.903330e-07	1.214702e-08	-3.259576e-07	1.500000e+01	2.835192e-08	4.360082e-05	3.867864e-11	-1.108960e-10	7.221738e-11
5.008430369444738e-07	-7.626538e-06	4.134448e-06	3.492089e-06	6.006400e-02	1.294873e-08	1.005151e-08	2.220000e+01	-1.109915e-05	6.618383e-07	1.947994e-08	-1.649851e-06	1.500000e+01	9.828342e-08	1.521568e-04	-9.022925e-11	-5.221823e-11	1.424475e-10
5.012069560904619e-07	-1.484717e-05	7.916161e-06	6.931013e-06	8.694177e-02	1.960272e-08	1.517753e-08	2.220000e+01	-2.176160e-05	1.001733e-06	1.658577e-08	-3.231113e-06	1.500000e+01	1.484986e-07	2.305759e-04	-2.950556e-10	4.278288e-11	2.522727e-10
5.016788057948830e-07	-2.804501e-05	1.472345e-05	1.332155e-05	1.227107e-01	2.773108e-08	2.145237e-08	2.220001e+01	-4.134932e-05	1.419143e-06	1.724033e-08	-6.130913e-06	1.500000e+01	2.099760e-07	3.268089e-04	-8.016819e-10	2.820066e-10	5.196754e-10
5.021548117445099e-07	-4.571937e-05	2.377324e-05	2.194612e-05	1.598431e-01	3.597589e-08	2.781451e-08	2.220001e+01	-6.764851e-05	1.844100e-06	1.697519e-08	-1.001723e-05	1.500000e+01	2.723438e-07	4.248219e-04	-1.680372e-09	7.021282e-10	9.782442e-10
5.028290132890849e-07	-7.821473e-05	4.031900e-05	3.789574e-05	2.142291e-01	4.748199e-08	3.669493e-08	2.220001e+01	-1.160936e-04	2.440156e-06	1.689749e-08	-1.716008e-05	1.500000e+01	3.594408e-07	5.623203e-04	-3.770910e-09	1.711562e-09	2.059348e-09
5.036745027853447e-07	-1.312586e-04	6.721291e-05	6.404566e-05	2.853857e-01	6.174974e-08	4.770800e-08	2.220001e+01	-1.952874e-04	3.184067e-06	1.681941e-08	-2.880326e-05	1.500000e+01	4.675183e-07	7.340024e-04	-8.201246e-09	3.867628e-09	4.333618e-09
5.048499576727123e-07	-2.275586e-04	1.158753e-04	1.116832e-04	3.897272e-01	8.123695e-08	6.275377e-08	2.220002e+01	-3.392251e-04	4.208757e-06	1.659997e-08	-4.988502e-05	1.500000e+01	6.152391e-07	9.706591e-04	-1.875039e-08	9.034038e-09	9.716347e-09
5.063519770810604e-07	-3.884416e-04	1.969646e-04	1.914770e-04	5.321294e-01	1.056046e-07	8.157576e-08	2.220002e+01	-5.799022e-04	5.504068e-06	1.647014e-08	-8.496328e-05	1.500000e+01	8.000519e-07	1.270254e-03	-4.188951e-08	2.042183e-08	2.146768e-08
5.083884520551953e-07	-6.735324e-04	3.403749e-04	3.331575e-04	7.412279e-01	1.377074e-07	1.063954e-07	2.220003e+01	-1.006674e-03	7.233557e-06	1.611805e-08	-1.467658e-04	1.500000e+01	1.043411e-06	1.671477e-03	-9.597078e-08	4.713900e-08	4.883178e-08
5.110309428007577e-07	-1.156714e-03	5.830657e-04	5.736484e-04	1.039547e+00	1.779116e-07	1.375420e-07	2.220004e+01	-1.730347e-03	9.433077e-06	1.584373e-08	-2.507010e-04	1.500000e+01	1.347178e-06	2.185049e-03	-2.169050e-07	1.070566e-07	1.098484e-07
5.145792386286038e-07	-2.003208e-03	1.007745e-03	9.954635e-04	1.486915e+00	2.294881e-07	1.776853e-07	2.220005e+01	-2.998656e-03	1.229629e-05	1.517788e-08	-4.309173e-04	1.500000e+01	1.732559e-06	2.863393e-03	-4.972550e-07	2.462691e-07	2.509859e-07
5.192331900316416e-07	-3.450315e-03	1.733085e-03	1.717230e-03	2.152405e+00	2.935340e-07	2.280740e-07	2.220007e+01	-5.167531e-03	1.586979e-05	1.438747e-08	-7.349178e-04	1.500000e+01	2.196283e-06	3.738934e-03	-1.131836e-06	5.619228e-07	5.699134e-07
5.249999999999999e-07	-5.763976e-03	2.891946e-03	2.872029e-03	3.095941e+00	3.683019e-07	2.882916e-07	2.220009e+01	-8.635992e-03	1.992991e-05	1.279120e-08	-1.213200e-03	1.500000e+01	2.695529e-06	4.811671e-03	-2.460373e-06	1.223612e-06	1.236760e-06
5.255766809968358e-07	-6.023017e-03	3.021435e-03	3.001582e-03	3.156610e+00	3.665938e-07	2.872930e-07	2.220009e+01	-9.024600e-03	1.985077e-05	-2.018057e-09	-1.266162e-03	1.500000e+01	2.672195e-06	4.813594e-03	-2.634053e-06	1.310166e-06	1.323887e-06
5.267300429905075e-07	-6.539436e-03	3.279508e-03	3.259929e-03	3.277328e+00	3.610056e-07	2.837442e-07	2.220009e+01	-9.799371e-03	1.957215e-05	-6.826277e-09	-1.371343e-03	1.500000e+01	2.608095e-06	4.791765e-03	-2.996303e-06	1.490723e-06	1.505580e-06
5.290367669778508e-07	-7.547975e-03	3.783168e-03	3.764806e-03	3.515087e+00	3.384341e-07	2.681645e-07	2.220009e+01	-1.131279e-02	1.834906e-05	-1.312647e-08	-1.573932e-03	1.500000e+01	2.383315e-06	4.611540e-03	-3.808743e-06	1.895849e-06	1.912895e-06
5.301544939804819e-07	-7.956161e-03	3.984663e-03	3.971497e-03	3.628546e+00	2.354710e-07	1.893031e-07	2.220007e+01	-1.192782e-02	1.300112e-05	-1.646896e-07	-1.653212e-03	1.500000e+01	1.570130e-06	3.439919e-03	-4.241996e-06	2.112035e-06	2.129961e-06
5.307963099622136e-07	-8.013397e-03	4.005181e-03	4.008216e-03	3.693189e+00	-9.231718e-08	-6.493929e-08	2.219999e+01	-1.202242e-02	-3.836993e-06	-8.019300e-07	-1.659504e-03	1.500000e+01	-9.413131e-07	-3.915883e-04	-4.498235e-06	2.240074e-06	2.258162e-06
5.312342217562821e-07	-7.764268e-03	3.863806e-03	3.900462e-03	3.737083e+00	-7.744554e-07	-5.949514e-07	2.219984e+01	-1.166687e-02	-3.879438e-05	-2.138585e-06	-1.600436e-03	1.500000e+01	-6.140830e-06	-8.395037e-03	-4.670952e-06	2.326650e-06	2.344302e-06
5.315823343186009e-07	-7.134429e-03	3.518790e-03	3.615639e-03	3.771856e+00	-1.995794e-06	-1.544235e-06	2.219957e+01	-1.075455e-02	-1.013331e-04	-4.484389e-06	-1.458724e-03	1.500000e+01	-1.543560e-05	-2.273933e-02	-4.800581e-06	2.392047e-06	2.408534e-06
5.319402293104321e-07	-5.605865e-03	2.690812e-03	2.915053e-03	3.807494e+00	-4.576001e-06	-3.549198e-06	2.219899e+01	-8.530068e-03	-2.333907e-04	-9.149784e-06	-1.119990e-03	1.500000e+01	-3.505382e-05	-5.305911e-02	-4.914496e-06	2.450444e-06	2.464051e-06
5.322955812410028e-07	-2.330533e-03	9.272965e-04	1.403236e-03	3.842767e+00	-9.667641e-06	-7.505005e-06	2.219785e+01	-3.751752e-03	-4.939229e-04	-1.798312e-05	-4.001873e-04	1.500000e+01	-7.375151e-05	-1.129094e-01	-4.984836e-06	2.488731e-06	2.496105e-06
5.326248971250369e-07	3.638789e-03	-2.273710e-03	-1.365079e-03	3.875358e+00	-1.840691e-05	-1.429289e-05	2.219590e+01	4.971512e-03	-9.409876e-04	-3.235592e-05	8.993389e-04	1.499999e+01	-1.401610e-04	-2.156609e-01	-4.973766e-06	2.488906e-06	2.484860e-06
5.329379314914397e-07	1.393668e-02	-7.775383e-03	-6.161299e-03	3.906246e+00	-3.262468e-05	-2.533139e-05	2.219273e+01	2.004398e-02	-1.668087e-03	-5.400286e-05	3.114900e-03	1.499999e+01	-2.481920e-04	-3.828612e-01	-4.835707e-06	2.429766e-06	2.405942e-06
5.332624275561254e-07	3.262888e-02	-1.771685e-02	-1.491204e-02	3.938164e+00	-5.655799e-05	-4.390348e-05	2.218738e+01	4.745425e-02	-2.891477e-03	-8.666864e-05	7.042132e-03	1.499998e+01	-4.300702e-04	-6.643882e-01	-4.457013e-06	2.258372e-06	2.198641e-06
5.336492323263124e-07	7.276868e-02	-3.893336e-02	-3.383532e-02	3.976052e+00	-1.025112e-04	-7.954193e-05	2.217710e+01	1.064632e-01	-5.238817e-03	-1.407803e-04	1.506202e-02	1.499997e+01	-7.794957e-04	-1.205127e+00	-3.435798e-06	1.786033e-06	1.649766e-06
5.339961665458786e-07	1.346903e-01	-7.144069e-02	-6.324960e-02	4.009844e+00	-1.643151e-04	-1.274487e-04	2.216328e+01	1.977382e-01	-8.392734e-03	-2.016425e-04	2.633771e-02	1.499996e+01	-1.250011e-03	-1.932680e+00	-1.633336e-06	9.425098e-07	6.908266e-07
5.342192026334813e-07	1.932985e-01	-1.020333e-01	-9.126509e-02	4.031440e+00	-2.156751e-04	-1.672413e-04	2.215179e+01	2.843209e-01	-1.101095e-02	-2.426875e-04	3.582926e-02	1.499995e+01	-1.641523e-03	-2.537513e+00	1.984271e-07	7.955016e-08	-2.779773e-07
5.344953939678288e-07	2.947094e-01	-1.546705e-01	-1.400390e-01	4.057988e+00	-2.925775e-04	-2.268162e-04	2.213457e+01	4.344524e-01	-1.492744e-02	-2.959256e-04	4.985959e-02	1.499994e+01	-2.228779e-03	-3.443514e+00	3.573086e-06	-1.519993e-06	-2.053093e-06
5.347849972650202e-07	4.461188e-01	-2.327659e-01	-2.133529e-01	4.085516e+00	-3.874771e-04	-3.002975e-04	2.211332e+01	6.591308e-01	-1.975395e-02	-3.409799e-04	6.640027e-02	1.499993e+01	-2.955020e-03	-4.562319e+00	8.944313e-06	-4.082245e-06	-4.862069e-06
5.351995068120390e-07	7.719494e-01	-3.996541e-01	-3.722953e-01	4.124134e+00	-5.451211e-04	-4.223883e-04	2.207797e+01	1.143844e+00	-2.775925e-02	-4.005002e-04	9.117928e-02	1.499992e+01	-4.165961e-03	-6.422649e+00	2.158312e-05	-1.015911e-05	-1.142401e-05
5.356487506981975e-07	1.315064e+00	-6.759658e-01	-6.390979e-01	4.164534e+00	-7.331588e-04	-5.679727e-04	2.203573e+01	1.953740e+00	-3.728914e-02	-4.212569e-04	1.171366e-01	1.499992e+01	-5.617141e-03	-8.645735e+00	4.504972e-05	-2.153150e-05	-2.351822e-05
5.361871858155581e-07	2.296325e+00	-1.172395e+00	-1.123930e+00	4.210148e+00	-9.622067e-04	-7.454008e-04	2.198413e+01	3.419837e+00	-4.888338e-02	-4.186758e-04	1.459146e-01	1.499992e+01	-7.395701e-03	-1.136171e+01	9.371123e-05	-4.528764e-05	-4.842359e-05
5.368366207371846e-07	4.032817e+00	-2.046734e+00	-1.986082e+00	4.259536e+00	-1.200588e-03	-9.299666e-04	2.193003e+01	6.018582e+00	-6.096888e-02	-3.168263e-04	1.773706e-01	1.499994e+01	-9.258382e-03	-1.420870e+01	1.965572e-04	-9.582449e-05	-1.007327e-04
5.374388976771476e-07	6.176964e+00	-3.122433e+00	-3.054531e+00	4.297671e+00	-1.338394e-03	-1.036488e-03	2.189810e+01	9.231339e+00	-6.805863e-02	-1.569786e-04	2.038711e-01	1.499997e+01	-1.034109e-02	-1.588928e+01	3.503922e-04	-1.717740e-04	-1.786182e-04
5.382470842080535e-07	9.569715e+00	-4.818976e+00	-4.750739e+00	4.329563e+00	-1.331064e-03	-1.030080e-03	2.189763e+01	1.432059e+01	-6.809711e-02	1.402655e-04	2.348958e-01	1.500003e+01	-1.028442e-02	-1.591416e+01	6.687179e-04	-3.295616e-04	-3.391564e-04
5.386168500823636e-07	1.113471e+01	-5.598233e+00	-5.536473e+00	4.327003e+00	-1.188609e-03	-9.183884e-04	2.192822e+01	1.667173e+01	-6.121012e-02	5.493417e-04	2.468400e-01	1.500011e+01	-9.160517e-03	-1.430415e+01	8.601907e-04	-4.246973e-04	-4.354934e-04
5.389714315187886e-07	1.238397e+01	-6.215771e+00	-6.168195e+00	4.290121e+00	-8.911119e-04	-6.864555e-04	2.199335e+01	1.855318e+01	-4.655837e-02	1.017748e-03	2.555309e-01	1.500020e+01	-6.831180e-03	-1.087658e+01	1.068735e-03	-5.284852e-04	-5.402499e-04
5.392653971060178e-07	1.301556e+01	-6.521151e+00	-6.494408e+00	4.202631e+00	-4.597022e-04	-3.504194e-04	2.208856e+01	1.951171e+01	-2.500514e-02	1.738277e-03	2.594869e-01	1.500034e+01	-3.483523e-03	-5.865347e+00	1.255431e-03	-6.215607e-04	-6.338705e-04
5.393868042806088e-07	1.317015e+01	-6.594713e+00	-6.575438e+00	4.171242e+00	-3.309219e-04	-2.544504e-04	2.211720e+01	1.974622e+01	-1.864362e-02	6.317649e-04	2.603187e-01	1.500012e+01	-2.521951e-03	-4.357599e+00	1.334917e-03	-6.612340e-04	-6.736831e-04
5.394449760484355e-07	1.323094e+01	-6.624016e+00	-6.606921e+00	4.158661e+00	-2.831002e-04	-2.166536e-04	2.212728e+01	1.983867e+01	-1.627766e-02	8.169531e-04	2.606253e-01	1.500016e+01	-2.155922e-03	-3.827462e+00	1.373315e-03	-6.804066e-04	-6.929085e-04
5.394912128937648e-07	1.327434e+01	-6.644872e+00	-6.629471e+00	4.149744e+00	-2.549791e-04	-1.960183e-04	2.213409e+01	1.990440e+01	-1.481217e-02	5.896807e-04	2.608258e-01	1.500012e+01	-1.940361e-03	-3.468961e+00	1.403955e-03	-6.957079e-04	-7.082473e-04
5.395362233039242e-07	1.331353e+01	-6.663791e+00	-6.649735e+00	4.141752e+00	-2.270573e-04	-1.741257e-04	2.213964e+01	1.996382e+01	-1.349353e-02	5.623072e-04	2.610063e-01	1.500011e+01	-1.735704e-03	-3.176625e+00	1.433875e-03	-7.106515e-04	-7.232240e-04
5.395591387129918e-07	1.333222e+01	-6.672824e+00	-6.659393e+00	4.137983e+00	-2.177622e-04	-1.676278e-04	2.214226e+01	1.999209e+01	-1.294557e-02	4.853479e-04	2.610824e-01	1.500010e+01	-1.657056e-03	-3.039022e+00	1.449141e-03	-7.182765e-04	-7.308647e-04
5.395754534673560e-07	1.334519e+01	-6.679104e+00	-6.666085e+00	4.135376e+00	-2.078180e-04	-1.595030e-04	2.214394e+01	2.001176e+01	-1.253647e-02	4.831855e-04	2.611421e-01	1.500010e+01	-1.592602e-03	-2.950440e+00	1.460023e-03	-7.237119e-04	-7.363108e-04
5.395873420134392e-07	1.335440e+01	-6.683565e+00	-6.670834e+00	4.133539e+00	-2.044829e-04	-1.574829e-04	2.214515e+01	2.002568e+01	-1.227816e-02	4.528364e-04	2.611755e-01	1.500009e+01	-1.555115e-03	-2.887118e+00	1.467959e-03	-7.276761e-04	-7.402826e-04
5.396001331728600e-07	1.336413e+01	-6.688281e+00	-6.675848e+00	4.131603e+00	-1.969470e-04	-1.512524e-04	2.214637e+01	2.004042e+01	-1.199270e-02	4.402507e-04	2.612201e-01	1.500009e+01	-1.511303e-03	-2.822590e+00	1.476503e-03	-7.319443e-04	-7.445589e-04
5.396123052094337e-07	1.337322e+01	-6.692689e+00	-6.680528e+00	4.129807e+00	-1.936919e-04	-1.492379e-04	2.214750e+01	2.005417e+01	-1.173954e-02	4.213063e-04	2.612522e-01	1.500008e+01	-1.473485e-03	-2.762972e+00	1.484640e-03	-7.360089e-04	-7.486310e-04
5.396278589941520e-07	1.338459e+01	-6.698206e+00	-6.686379e+00	4.127571e+00	-1.856606e-04	-1.426768e-04	2.214888e+01	2.007137e+01	-1.142509e-02	4.019814e-04	2.613016e-01	1.500008e+01	-1.425874e-03	-2.690617e+00	1.495045e-03	-7.412068e-04	-7.538382e-04
5.396497873870234e-07	1.340019e+01	-6.705787e+00	-6.694403e+00	4.124525e+00	-1.790618e-04	-1.380788e-04	2.215072e+01	2.009497e+01	-1.100854e-02	3.753981e-04	2.613577e-01	1.500007e+01	-1.363180e-03	-2.593734e+00	1.509730e-03	-7.485427e-04	-7.611868e-04
5.396822048544579e-07	1.342238e+01	-6.716582e+00	-6.705802e+00	4.120245e+00	-1.660447e-04	-1.277449e-04	2.215321e+01	2.012852e+01	-1.044014e-02	3.398558e-04	2.614449e-01	1.500007e+01	-1.277442e-03	-2.462429e+00	1.531469e-03	-7.594033e-04	-7.720653e-04
5.397370246265017e-07	1.345781e+01	-6.733846e+00	-6.723963e+00	4.113556e+00	-1.508495e-04	-1.165811e-04	2.215694e+01	2.018206e+01	-9.593771e-03	2.890243e-04	2.615655e-01	1.500006e+01	-1.150004e-03	-2.266442e+00	1.568309e-03	-7.778096e-04	-7.904998e-04
5.398370628657034e-07	1.351666e+01	-6.762613e+00	-6.754050e+00	4.102888e+00	-1.243812e-04	-9.600539e-05	2.216241e+01	2.027093e+01	-8.345294e-03	2.174479e-04	2.617553e-01	1.500004e+01	-9.620165e-04	-1.978599e+00	1.635774e-03	-8.115189e-04	-8.242553e-04
5.399536826324068e-07	1.357764e+01	-6.792526e+00	-6.785112e+00	4.092541e+00	-1.043859e-04	-8.117780e-05	2.216718e+01	2.036291e+01	-7.253025e-03	1.607587e-04	2.619122e-01	1.500003e+01	-7.977164e-04	-1.727237e+00	1.714770e-03	-8.509938e-04	-8.637767e-04
5.400740185457349e-07	1.363390e+01	-6.820216e+00	-6.813686e+00	4.083736e+00	-8.609856e-05	-6.684195e-05	2.217085e+01	2.044771e+01	-6.408880e-03	1.209261e-04	2.620341e-01	1.500002e+01	-6.707038e-04	-1.534302e+00	1.796636e-03	-8.919057e-04	-9.047306e-04
5.402318201313336e-07	1.370006e+01	-6.852865e+00	-6.847191e+00	4.074390e+00	-7.162506e-05	-5.623000e-05	2.217440e+01	2.054733e+01	-5.587372e-03	8.702538e-05	2.621293e-01	1.500002e+01	-5.471776e-04	-1.347343e+00	1.904473e-03	-9.458000e-04	-9.586730e-04
5.403926726373891e-07	1.376072e+01	-6.882878e+00	-6.877838e+00	4.066854e+00	-5.813357e-05	-4.557613e-05	2.217701e+01	2.063862e+01	-4.976687e-03	6.392910e-05	2.621857e-01	1.500001e+01	-4.552809e-04	-1.210071e+00	2.014904e-03	-1.000994e-03	-1.013910e-03
5.405606511668353e-07	1.381865e+01	-6.911599e+00	-6.907052e+00	4.060608e+00	-5.056766e-05	-4.025130e-05	2.217903e+01	2.072575e+01	-4.498233e-03	4.875373e-05	2.621973e-01	1.500001e+01	-3.833097e-04	-1.103503e+00	2.130725e-03	-1.058885e-03	-1.071841e-03
5.407263141710402e-07	1.387166e+01	-6.937917e+00	-6.933744e+00	4.055695e+00	-4.210329e-05	-3.345637e-05	2.218053e+01	2.080544e+01	-4.136166e-03	3.749628e-05	2.621870e-01	1.500001e+01	-3.287779e-04	-1.024496e+00	2.245409e-03	-1.116209e-03	-1.129201e-03
5.409205479388632e-07	1.392987e+01	-6.966853e+00	-6.963017e+00	4.051144e+00	-3.759528e-05	-3.049313e-05	2.218188e+01	2.089292e+01	-3.805955e-03	2.928770e-05	2.621377e-01	1.500001e+01	-2.790614e-04	-9.536041e-01	2.380412e-03	-1.183690e-03	-1.196722e-03
5.410957129457719e-07	1.397950e+01	-6.991547e+00	-6.987952e+00	4.047920e+00	-3.176907e-05	-2.573733e-05	2.218280e+01	2.096747e+01	-3.572112e-03	2.310033e-05	2.620804e-01	1.500000e+01	-2.437964e-04	-9.051222e-01	2.502633e-03	-1.244785e-03	-1.257848e-03
5.413133183123277e-07	1.403830e+01	-7.020829e+00	-7.017472e+00	4.044798e+00	-2.930829e-05	-2.436712e-05	2.218369e+01	2.105579e+01	-3.338944e-03	1.872665e-05	2.619796e-01	1.500000e+01	-2.086483e-04	-8.581367e-01	2.655056e-03	-1.320977e-03	-1.334079e-03
5.415046586969536e-07	1.408792e+01	-7.045557e+00	-7.042368e+00	4.042702e+00	-2.496183e-05	-2.077059e-05	2.218429e+01	2.113031e+01	-3.173849e-03	1.496822e-05	2.618835e-01	1.500000e+01	-1.837169e-04	-8.267418e-01	2.789600e-03	-1.388234e-03	-1.401367e-03
5.417258639930938e-07	1.414345e+01	-7.073239e+00	-7.070211e+00	4.040855e+00	-2.404796e-05	-2.060272e-05	2.218484e+01	2.121367e+01	-3.014642e-03	1.295152e-05	2.617505e-01	1.500000e+01	-1.596911e-04	-7.978030e-01	2.945726e-03	-1.466279e-03	-1.479447e-03
5.419295867408972e-07	1.419318e+01	-7.098042e+00	-7.095139e+00	4.039595e+00	-2.064799e-05	-1.775706e-05	2.218523e+01	2.128833e+01	-2.891526e-03	1.054197e-05	2.616256e-01	1.500000e+01	-1.410812e-04	-7.772996e-01	3.090049e-03	-1.538426e-03	-1.551623e-03
5.421443965323782e-07	1.424448e+01	-7.123636e+00	-7.120848e+00	4.038622e+00	-2.069365e-05	-1.833448e-05	2.218557e+01	2.136534e+01	-2.778261e-03	9.788073e-06	2.614775e-01	1.500000e+01	-1.239798e-04	-7.595692e-01	3.242768e-03	-1.614770e-03	-1.627998e-03
5.423828770244156e-07	1.430035e+01	-7.151511e+00	-7.148835e+00	4.037888e+00	-1.775631e-05	-1.588836e-05	2.218586e+01	2.144919e+01	-2.668365e-03	8.043018e-06	2.613135e-01	1.500000e+01	-1.073688e-04	-7.443781e-01	3.412955e-03	-1.699847e-03	-1.713108e-03
5.426033113721229e-07	1.435117e+01	-7.176876e+00	-7.174291e+00	4.037466e+00	-1.831772e-05	-1.688115e-05	2.218608e+01	2.152547e+01	-2.576438e-03	7.943071e-06	2.611484e-01	1.500000e+01	-9.349588e-05	-7.327162e-01	3.570852e-03	-1.778781e-03	-1.792070e-03
5.428710351707585e-07	1.441205e+01	-7.207267e+00	-7.204785e+00	4.037216e+00	-1.575330e-05	-1.476798e-05	2.218629e+01	2.161684e+01	-2.474744e-03	6.691032e-06	2.609506e-01	1.500000e+01	-7.814576e-05	-7.217921e-01	3.763369e-03	-1.875023e-03	-1.888346e-03
5.431509726336159e-07	1.447493e+01	-7.238658e+00	-7.236276e+00	4.037205e+00	-1.648308e-05	-1.596240e-05	2.218647e+01	2.171122e+01	-2.374819e-03	6.932337e-06	2.607298e-01	1.500000e+01	-6.309521e-05	-7.122298e-01	3.965535e-03	-1.976089e-03	-1.989446e-03
5.434965247642423e-07	1.455168e+01	-7.276972e+00	-7.274707e+00	4.037466e+00	-1.408686e-05	-1.408206e-05	2.218664e+01	2.182639e+01	-2.258051e-03	6.027114e-06	2.604598e-01	1.500000e+01	-4.552987e-05	-7.032725e-01	4.216293e-03	-2.101448e-03	-2.114845e-03
5.439046650934532e-07	1.464134e+01	-7.321734e+00	-7.319605e+00	4.038090e+00	-1.484947e-05	-1.546578e-05	2.218681e+01	2.196095e+01	-2.122378e-03	6.622165e-06	2.601250e-01	1.500000e+01	-2.518520e-05	-6.942919e-01	4.514168e-03	-2.250363e-03	-2.263805e-03
5.441030050087201e-07	1.468457e+01	-7.343314e+00	-7.341252e+00	4.038504e+00	-1.294006e-05	-1.384015e-05	2.218688e+01	2.202582e+01	-2.056442e-03	6.106640e-06	2.599657e-01	1.500000e+01	-1.531527e-05	-6.907031e-01	4.659582e-03	-2.323060e-03	-2.336523e-03
5.442349780161936e-07	1.471279e+01	-7.357389e+00	-7.355404e+00	4.038992e+00	-1.345078e-05	-1.471955e-05	2.218711e+01	2.206821e+01	-1.969095e-03	1.633649e-05	2.598493e-01	1.500000e+01	-2.193068e-06	-6.784900e-01	4.756575e-03	-2.371549e-03	-2.385026e-03
5.443168311908208e-07	1.472927e+01	-7.365565e+00	-7.363702e+00	4.039717e+00	-9.450723e-06	-1.128076e-05	2.218765e+01	2.209301e+01	-1.821529e-03	4.110865e-05	2.597764e-01	1.500001e+01	2.003293e-05	-6.501748e-01	4.816824e-03	-2.401670e-03	-2.415154e-03
