time	V(N002,N019)	V(N004,N019)	V(N005,N019)	V(N008,N002)	V(N009,N005)	V(N011,N004)	V(n001)	V(n002)	V(n004)	V(n005)	V(n015)	V(n016)	V(n017)	I(Battery)	I(Rmotor1)	I(Rmotor2)	I(Rmotor3)
0.000000000000000e+00	6.622000e-13	6.622000e-13	-1.324400e-12	0.000000e+00	0.000000e+00	0.000000e+00	2.220000e+01	2.363577e-12	2.363577e-12	3.769768e-13	0.000000e+00	1.500000e+01	0.000000e+00	-1.805347e-10	6.020000e-11	-1.204000e-10	6.020000e-11
1.000000013351432e-10	6.593242e-13	6.583254e-13	-1.317872e-12	-1.112714e-11	-4.468426e-12	4.469314e-12	2.220000e+01	2.352895e-12	2.351896e-12	3.756995e-13	-1.602597e-15	1.500000e+01	-1.752431e-15	-1.830358e-10	6.020000e-11	-1.204000e-10	6.020000e-11
1.000000023351432e-10	6.655045e-13	6.654098e-13	-1.308709e-12	-7.516687e-14	-3.006688e-14	3.124996e-14	2.220000e+01	2.352509e-12	2.352414e-12	3.782959e-13	-1.677606e-15	1.500000e+01	-1.651826e-15	-1.828084e-10	6.020000e-11	-1.204000e-10	6.020000e-11
1.000000043351432e-10	6.846404e-13	6.534045e-13	-1.315839e-12	-5.586308e-14	-4.682076e-14	1.361389e-14	2.220000e+01	2.372082e-12	2.340846e-12	3.716022e-13	2.125841e-15	1.500000e+01	-3.899779e-15	-1.821263e-10	6.020000e-11	-1.204000e-10	6.020000e-11
1.000000083351432e-10	7.494041e-13	6.700661e-13	-1.397265e-12	3.091733e-14	-1.267319e-13	4.333491e-14	2.220000e+01	2.436887e-12	2.357549e-12	2.902187e-13	1.471905e-14	1.500000e+01	-6.539159e-16	-1.839453e-10	6.020000e-11	-1.204000e-10	6.020000e-11
1.000000163351432e-10	8.045426e-13	6.225140e-13	-1.404851e-12	4.620089e-14	-1.688571e-13	-6.319489e-14	2.220000e+01	2.491032e-12	2.309003e-12	2.816385e-13	2.524057e-14	1.500000e+01	-1.008753e-14	-1.798526e-10	6.020000e-11	-1.204000e-10	6.020000e-11
1.000000323351432e-10	8.450997e-13	5.998009e-13	-1.422694e-12	4.395117e-14	-2.177429e-13	-1.404959e-13	2.220000e+01	2.531030e-12	2.285731e-12	2.632360e-13	3.301294e-14	1.500000e+01	-1.460990e-14	-1.750777e-10	6.020000e-11	-1.204000e-10	6.020000e-11
1.000000643351432e-10	8.553052e-13	5.875023e-13	-1.420602e-12	3.254623e-14	-2.421744e-13	-1.785950e-13	2.220000e+01	2.540606e-12	2.272803e-12	2.646986e-13	3.487380e-14	1.500000e+01	-1.712198e-14	-1.714398e-10	6.020000e-11	-1.204000e-10	6.020000e-11
1.000001283351432e-10	9.059180e-13	5.396481e-13	-1.423363e-12	2.683986e-14	-2.993677e-13	-3.011022e-13	2.220000e+01	2.589785e-12	2.223515e-12	2.605039e-13	4.443021e-14	1.500000e+01	-2.669967e-14	-1.648459e-10	6.020000e-11	-1.204000e-10	6.020000e-11
1.000002563351432e-10	9.193220e-13	5.477252e-13	-1.444847e-12	7.911662e-14	-2.867321e-13	-2.551384e-13	2.220000e+01	2.603744e-12	2.232147e-12	2.395746e-13	4.714221e-14	1.500000e+01	-2.502209e-14	-1.680291e-10	6.020000e-11	-1.204000e-10	6.020000e-11
1.000005123351432e-10	9.809396e-13	5.264713e-13	-1.485216e-12	1.410070e-13	-3.196112e-13	-2.915324e-13	2.220000e+01	2.665434e-12	2.210966e-12	1.992787e-13	5.912902e-14	1.500000e+01	-2.913754e-14	-1.684839e-10	6.020000e-11	-1.204000e-10	6.020000e-11
1.000010243351432e-10	9.538496e-13	5.267167e-13	-1.458384e-12	1.119215e-13	-3.079638e-13	-2.882913e-13	2.220000e+01	2.637810e-12	2.210677e-12	2.255757e-13	5.375871e-14	1.500000e+01	-2.919270e-14	-1.673470e-10	6.020000e-11	-1.204000e-10	6.020000e-11
1.000020483351432e-10	9.926000e-13	4.906794e-13	-1.461119e-12	1.271010e-13	-3.209979e-13	-3.621232e-13	2.220000e+01	2.676091e-12	2.174170e-12	2.223722e-13	6.119302e-14	1.500000e+01	-3.628433e-14	-1.655280e-10	6.020000e-11	-1.204000e-10	6.020000e-11
1.000040963351432e-10	9.726393e-13	4.550108e-13	-1.405535e-12	5.380960e-14	-3.043458e-13	-4.537627e-13	2.220000e+01	2.655455e-12	2.137827e-12	2.772808e-13	5.717364e-14	1.500000e+01	-4.334078e-14	-1.598437e-10	6.020000e-11	-1.204000e-10	6.020000e-11
1.000081923351432e-10	9.546311e-13	4.681917e-13	-1.400800e-12	1.777333e-14	-3.035660e-13	-4.542254e-13	2.220000e+01	2.637706e-12	2.151266e-12	2.822744e-13	5.370688e-14	1.500000e+01	-4.071666e-14	-1.587068e-10	6.020000e-11	-1.204000e-10	6.020000e-11
1.000163843351432e-10	9.127384e-13	4.722178e-13	-1.363113e-12	-2.692898e-14	-2.554105e-13	-4.452323e-13	2.220000e+01	2.595883e-12	2.155362e-12	3.200318e-13	4.554813e-14	1.500000e+01	-3.989681e-14	-1.580247e-10	6.020000e-11	-1.204000e-10	6.020000e-11
1.000327683351432e-10	9.260638e-13	4.748178e-13	-1.379392e-12	1.718265e-14	-2.291386e-13	-4.083607e-13	2.220000e+01	2.609822e-12	2.158576e-12	3.043657e-13	4.819709e-14	1.500000e+01	-3.922571e-14	-1.616627e-10	6.020000e-11	-1.204000e-10	6.020000e-11
1.000655363351432e-10	8.714898e-13	4.559240e-13	-1.306619e-12	1.767618e-14	-6.771274e-14	-3.478105e-13	2.220000e+01	2.556684e-12	2.141118e-12	3.785753e-13	3.776225e-14	1.500000e+01	-4.252195e-14	-1.696208e-10	6.020000e-11	-1.204000e-10	6.020000e-11
4.999999999999986e-07	6.564361e-13	6.681296e-13	-1.324558e-12	-1.433619e-14	5.038044e-15	-2.196810e-15	2.220000e+01	2.365858e-12	2.377548e-12	3.848601e-13	-1.651457e-15	1.500000e+01	7.348858e-17	-1.803073e-10	6.020009e-11	-1.204002e-10	6.020011e-11
5.198359685492727e-07	-3.566472e-03	1.790971e-03	1.775502e-03	2.222429e+00	2.987407e-07	2.347442e-07	2.220007e+01	-5.341944e-03	1.549892e-05	2.994633e-08	-7.424924e-04	1.500000e+01	2.147828e-06	3.802127e-03	-1.768719e-06	8.804335e-07	8.882859e-07
5.249999999999999e-07	-5.668698e-03	2.844070e-03	2.824628e-03	3.074522e+00	3.746996e-07	2.961206e-07	2.220009e+01	-8.493326e-03	1.944237e-05	-2.806795e-10	-1.178145e-03	1.500000e+01	2.642406e-06	4.871056e-03	-2.961086e-06	1.474363e-06	1.486723e-06
5.292003111978291e-07	-7.519648e-03	3.768530e-03	3.751118e-03	3.511316e+00	3.380106e-07	2.712968e-07	2.220009e+01	-1.127078e-02	1.739410e-05	-1.799561e-08	-1.553326e-03	1.500000e+01	2.261051e-06	4.597294e-03	-4.346049e-06	2.164910e-06	2.181139e-06
5.308182138982472e-07	-7.912586e-03	3.957242e-03	3.955343e-03	3.675239e+00	3.204633e-08	3.589889e-08	2.220002e+01	-1.186828e-02	1.549628e-06	-3.490109e-07	-1.624230e-03	1.500000e+01	-1.116052e-07	1.048275e-03	-4.970260e-06	2.476625e-06	2.493635e-06
5.317842308827619e-07	-6.674387e-03	3.285805e-03	3.388583e-03	3.771993e+00	-2.077289e-06	-1.601271e-06	2.219955e+01	-1.006677e-02	-1.065789e-04	-3.801126e-06	-1.341444e-03	1.500000e+01	-1.616642e-05	-2.373962e-02	-5.322477e-06	2.653954e-06	2.668523e-06
5.323194636771680e-07	-3.645207e-03	1.656395e-03	1.988813e-03	3.825247e+00	-6.734168e-06	-5.221314e-06	2.219851e+01	-5.646653e-03	-3.450517e-04	-1.263365e-05	-6.717163e-04	1.500000e+01	-5.158373e-05	-7.848555e-02	-5.460409e-06	2.725838e-06	2.734571e-06
5.327192469528190e-07	1.973507e-03	-1.358448e-03	-6.150589e-04	3.864861e+00	-1.504178e-05	-1.167506e-05	2.219665e+01	2.561817e-03	-7.701373e-04	-2.674839e-05	5.549760e-04	1.499999e+01	-1.147215e-04	-1.761628e-01	-5.476835e-06	2.739437e-06	2.737398e-06
5.330616994536283e-07	1.157672e-02	-6.492738e-03	-5.083981e-03	3.898680e+00	-2.846023e-05	-2.209435e-05	2.219366e+01	1.661300e-02	-1.456457e-03	-4.770039e-05	2.627930e-03	1.499999e+01	-2.166802e-04	-3.339558e-01	-5.360346e-06	2.690422e-06	2.669924e-06
5.333998497673561e-07	2.892451e-02	-1.572695e-02	-1.319756e-02	3.931965e+00	-5.099879e-05	-3.958633e-05	2.218862e+01	4.204274e-02	-2.608715e-03	-7.933133e-05	6.290419e-03	1.499998e+01	-3.879535e-04	-5.990670e-01	-5.017090e-06	2.535468e-06	2.481622e-06
5.337813007663537e-07	6.461404e-02	-3.461219e-02	-3.000185e-02	3.969360e+00	-9.272143e-05	-7.194700e-05	2.217929e+01	9.448596e-02	-4.740275e-03	-1.299279e-04	1.349371e-02	1.499997e+01	-7.051652e-04	-1.089991e+00	-4.123295e-06	2.122666e-06	2.000629e-06
5.342077393282799e-07	1.385341e-01	-7.342476e-02	-6.510932e-02	4.010911e+00	-1.667656e-04	-1.293439e-04	2.216273e+01	2.034397e-01	-8.519194e-03	-2.037534e-04	2.701033e-02	1.499996e+01	-1.268821e-03	-1.961639e+00	-1.953843e-06	1.106933e-06	8.469103e-07
5.344483436262017e-07	2.036115e-01	-1.073724e-01	-9.623907e-02	4.034196e+00	-2.228895e-04	-1.728227e-04	2.215017e+01	2.996039e-01	-1.137999e-02	-2.466505e-04	3.740266e-02	1.499995e+01	-1.696673e-03	-2.622616e+00	1.074530e-07	1.348486e-07	-2.423016e-07
5.347557268132220e-07	3.233974e-01	-1.694783e-01	-1.539191e-01	4.063695e+00	-3.110084e-04	-2.410915e-04	2.213044e+01	4.770086e-01	-1.586710e-02	-3.079384e-04	5.336722e-02	1.499994e+01	-2.369873e-03	-3.660853e+00	4.163284e-06	-1.790396e-06	-2.372888e-06
5.350497275446287e-07	4.890147e-01	-2.547869e-01	-2.342278e-01	4.091558e+00	-4.101452e-04	-3.178399e-04	2.210823e+01	7.228942e-01	-2.090745e-02	-3.483821e-04	7.037044e-02	1.499993e+01	-3.128896e-03	-4.829845e+00	1.014281e-05	-4.647298e-06	-5.495509e-06
5.354726677206324e-07	8.467433e-01	-4.377930e-01	-4.089504e-01	4.130774e+00	-5.745216e-04	-4.451554e-04	2.207137e+01	1.255284e+00	-2.925229e-02	-4.096415e-04	9.559070e-02	1.499992e+01	-4.392575e-03	-6.770012e+00	2.428433e-05	-1.145668e-05	-1.282765e-05
5.359315564807936e-07	1.441870e+00	-7.402604e-01	-7.016098e-01	4.171716e+00	-7.683248e-04	-5.951971e-04	2.202782e+01	2.143059e+00	-3.907130e-02	-4.206901e-04	1.217788e-01	1.499992e+01	-5.889536e-03	-9.062227e+00	5.056956e-05	-2.421190e-05	-2.635766e-05
5.363692160071379e-07	2.257315e+00	-1.152665e+00	-1.104650e+00	4.208637e+00	-9.531972e-04	-7.384010e-04	2.198616e+01	3.361551e+00	-4.842934e-02	-4.139887e-04	1.450138e-01	1.499992e+01	-7.325558e-03	-1.125497e+01	9.108490e-05	-4.399521e-05	-4.708970e-05
5.369876507023753e-07	3.880071e+00	-1.969957e+00	-1.910114e+00	4.256027e+00	-1.185012e-03	-9.179302e-04	2.193359e+01	5.789849e+00	-6.017881e-02	-3.354319e-04	1.751141e-01	1.499994e+01	-9.136658e-03	-1.402160e+01	1.860553e-04	-9.064632e-05	-9.540898e-05
5.376950154057469e-07	6.395184e+00	-3.231802e+00	-3.163382e+00	4.300735e+00	-1.348041e-03	-1.043938e-03	2.189583e+01	9.558424e+00	-6.856249e-02	-1.418221e-04	2.061795e-01	1.499997e+01	-1.041722e-02	-1.600891e+01	3.678898e-04	-1.804292e-04	-1.874606e-04
5.387226984337559e-07	1.069111e+01	-5.377994e+00	-5.313115e+00	4.331240e+00	-1.257779e-03	-9.728596e-04	2.191318e+01	1.600450e+01	-6.460200e-02	2.771742e-04	2.435467e-01	1.500006e+01	-9.708124e-03	-1.509584e+01	8.070866e-04	-3.983153e-04	-4.087712e-04
5.391718792435527e-07	1.234035e+01	-6.194523e+00	-6.145825e+00	4.294527e+00	-9.116266e-04	-7.019676e-04	2.198882e+01	1.848731e+01	-4.756095e-02	1.136219e-03	2.552376e-01	1.500023e+01	-6.987690e-03	-1.111475e+01	1.065801e-03	-5.270353e-04	-5.387657e-04
5.394506097610789e-07	1.297067e+01	-6.499764e+00	-6.470907e+00	4.212385e+00	-5.038691e-04	-3.849100e-04	2.207882e+01	1.944321e+01	-2.722318e-02	1.633327e-03	2.592037e-01	1.500032e+01	-3.824917e-03	-6.377675e+00	1.242206e-03	-6.149681e-04	-6.272381e-04
5.395696768290154e-07	1.313438e+01	-6.577740e+00	-6.556644e+00	4.179535e+00	-3.625670e-04	-2.780799e-04	2.211013e+01	1.969191e+01	-2.021436e-02	8.820681e-04	2.601312e-01	1.500017e+01	-2.758571e-03	-4.729786e+00	1.319921e-03	-6.537512e-04	-6.661694e-04
5.396347986806239e-07	1.320692e+01	-6.612551e+00	-6.594367e+00	4.164516e+00	-3.046776e-04	-2.333354e-04	2.212267e+01	1.980213e+01	-1.734022e-02	8.437534e-04	2.604851e-01	1.500017e+01	-2.318640e-03	-4.069914e+00	1.362809e-03	-6.751635e-04	-6.876455e-04
5.396968126607221e-07	1.326748e+01	-6.641642e+00	-6.625839e+00	4.152016e+00	-2.617142e-04	-2.009729e-04	2.213244e+01	1.989395e+01	-1.516827e-02	6.341073e-04	2.607941e-01	1.500012e+01	-1.992579e-03	-3.555891e+00	1.403857e-03	-6.956610e-04	-7.081956e-04
5.397543110319308e-07	1.331803e+01	-6.666034e+00	-6.651998e+00	4.141684e+00	-2.273840e-04	-1.745420e-04	2.213973e+01	1.997058e+01	-1.348795e-02	5.483318e-04	2.610057e-01	1.500011e+01	-1.735934e-03	-3.172282e+00	1.442075e-03	-7.147486e-04	-7.273260e-04
5.397943826303554e-07	1.335028e+01	-6.681628e+00	-6.668650e+00	4.135181e+00	-2.086184e-04	-1.605051e-04	2.214414e+01	2.001939e+01	-1.251209e-02	4.663478e-04	2.611603e-01	1.500009e+01	-1.590705e-03	-2.940227e+00	1.468792e-03	-7.280940e-04	-7.406984e-04
5.398246472105353e-07	1.337343e+01	-6.692849e+00	-6.680579e+00	4.130575e+00	-1.943438e-04	-1.493907e-04	2.214704e+01	2.005444e+01	-1.183612e-02	4.337707e-04	2.612390e-01	1.500009e+01	-1.487075e-03	-2.787420e+00	1.489013e-03	-7.381947e-04	-7.508182e-04
5.398483352293595e-07	1.339073e+01	-6.701245e+00	-6.689485e+00	4.127165e+00	-1.857392e-04	-1.430744e-04	2.214916e+01	2.008061e+01	-1.136569e-02	3.940937e-04	2.613235e-01	1.500008e+01	-1.417300e-03	-2.675637e+00	1.504863e-03	-7.461130e-04	-7.587506e-04
5.398730913378825e-07	1.340825e+01	-6.709758e+00	-6.698492e+00	4.123751e+00	-1.755263e-04	-1.350604e-04	2.215120e+01	2.010711e+01	-1.089389e-02	3.720213e-04	2.613754e-01	1.500007e+01	-1.345339e-03	-2.568216e+00	1.521450e-03	-7.543992e-04	-7.670511e-04
5.398956467357272e-07	1.342365e+01	-6.717249e+00	-6.706401e+00	4.120779e+00	-1.686092e-04	-1.300229e-04	2.215294e+01	2.013039e+01	-1.050640e-02	3.411518e-04	2.614479e-01	1.500007e+01	-1.287551e-03	-2.477129e+00	1.536581e-03	-7.619584e-04	-7.746228e-04
5.399216132768282e-07	1.344083e+01	-6.725616e+00	-6.715217e+00	4.117502e+00	-1.592712e-04	-1.226803e-04	2.215479e+01	2.015637e+01	-1.007874e-02	3.209171e-04	2.614951e-01	1.500006e+01	-1.222652e-03	-2.379259e+00	1.554021e-03	-7.706717e-04	-7.833498e-04
5.399528736552365e-07	1.346073e+01	-6.735319e+00	-6.725415e+00	4.113764e+00	-1.508923e-04	-1.165243e-04	2.215684e+01	2.018644e+01	-9.616766e-03	2.877677e-04	2.615787e-01	1.500006e+01	-1.153456e-03	-2.271552e+00	1.575046e-03	-7.811761e-04	-7.938701e-04
5.399926531346248e-07	1.348498e+01	-6.747158e+00	-6.737823e+00	4.109293e+00	-1.392755e-04	-1.074476e-04	2.215921e+01	2.022306e+01	-9.074125e-03	2.613005e-04	2.616443e-01	1.500005e+01	-1.071416e-03	-2.147049e+00	1.601845e-03	-7.945658e-04	-8.072788e-04
5.400472224279084e-07	1.351643e+01	-6.762538e+00	-6.753887e+00	4.103647e+00	-1.273212e-04	-9.856559e-05	2.216204e+01	2.027053e+01	-8.430929e-03	2.202526e-04	2.617549e-01	1.500004e+01	-9.749144e-04	-1.997967e+00	1.638682e-03	-8.129724e-04	-8.257100e-04
5.401279778118176e-07	1.355969e+01	-6.783749e+00	-6.775945e+00	4.096189e+00	-1.104620e-04	-8.549448e-05	2.216556e+01	2.033582e+01	-7.622097e-03	1.821324e-04	2.618598e-01	1.500004e+01	-8.529269e-04	-1.812584e+00	1.693348e-03	-8.402886e-04	-8.530593e-04
5.402228320393275e-07	1.360629e+01	-6.806648e+00	-6.799641e+00	4.088608e+00	-9.637176e-05	-7.498451e-05	2.216886e+01	2.040607e+01	-6.867490e-03	1.401637e-04	2.619829e-01	1.500003e+01	-7.397015e-04	-1.638822e+00	1.757770e-03	-8.724823e-04	-8.852881e-04
5.403583048650382e-07	1.366663e+01	-6.836384e+00	-6.830250e+00	4.079554e+00	-7.900100e-05	-6.153202e-05	2.217249e+01	2.049699e+01	-6.026570e-03	1.071789e-04	2.620798e-01	1.500002e+01	-6.129576e-04	-1.447593e+00	1.850142e-03	-9.186458e-04	-9.314960e-04
5.404874878351217e-07	1.371875e+01	-6.862127e+00	-6.856619e+00	4.072496e+00	-6.816141e-05	-5.351193e-05	2.217508e+01	2.057545e+01	-5.429794e-03	7.851674e-05	2.621603e-01	1.500002e+01	-5.234667e-04	-1.311696e+00	1.938587e-03	-9.628498e-04	-9.757376e-04
5.406980374160387e-07	1.379549e+01	-6.900128e+00	-6.895367e+00	4.063427e+00	-5.329573e-05	-4.200218e-05	2.217816e+01	2.069092e+01	-4.704340e-03	5.735067e-05	2.621956e-01	1.500001e+01	-4.140721e-04	-1.149714e+00	2.083419e-03	-1.035238e-03	-1.048180e-03
5.409010661218672e-07	1.386222e+01	-6.933239e+00	-6.928981e+00	4.056871e+00	-4.491461e-05	-3.590016e-05	2.218019e+01	2.079124e+01	-4.220272e-03	3.773365e-05	2.622045e-01	1.500001e+01	-3.414757e-04	-1.042535e+00	2.223805e-03	-1.105409e-03	-1.118396e-03
5.412272850074775e-07	1.395955e+01	-6.981623e+00	-6.977925e+00	4.049358e+00	-3.391017e-05	-2.741930e-05	2.218241e+01	2.093750e+01	-3.670148e-03	2.796342e-05	2.621114e-01	1.500001e+01	-2.583576e-04	-9.255986e-01	2.450709e-03	-1.218828e-03	-1.231881e-03
5.415664445478927e-07	1.405180e+01	-7.027558e+00	-7.024242e+00	4.044304e+00	-2.827770e-05	-2.352311e-05	2.218384e+01	2.107606e+01	-3.300797e-03	1.517819e-05	2.619786e-01	1.500000e+01	-2.029148e-04	-8.505633e-01	2.688221e-03	-1.337554e-03	-1.350666e-03
5.419990254556701e-07	1.416135e+01	-7.082167e+00	-7.079185e+00	4.040388e+00	-2.211257e-05	-1.886277e-05	2.218499e+01	2.124055e+01	-2.968312e-03	1.427485e-05	2.617194e-01	1.500000e+01	-1.524677e-04	-7.899370e-01	2.993337e-03	-1.490079e-03	-1.503259e-03
5.424565572786466e-07	1.427094e+01	-7.136836e+00	-7.134102e+00	4.038218e+00	-1.965911e-05	-1.754193e-05	2.218571e+01	2.140505e+01	-2.727663e-03	6.488011e-06	2.614284e-01	1.500000e+01	-1.163648e-04	-7.519343e-01	3.318559e-03	-1.652657e-03	-1.665902e-03
5.430128097834305e-07	1.439904e+01	-7.200771e+00	-7.198268e+00	4.037197e+00	-1.622955e-05	-1.515518e-05	2.218626e+01	2.159731e+01	-2.493169e-03	9.390933e-06	2.610068e-01	1.500000e+01	-8.071017e-05	-7.231687e-01	3.717258e-03	-1.851970e-03	-1.865288e-03
5.436513984018926e-07	1.454188e+01	-7.272079e+00	-7.269800e+00	4.037359e+00	-1.538138e-05	-1.532189e-05	2.218662e+01	2.181168e+01	-2.274979e-03	3.979207e-06	2.605216e-01	1.500000e+01	-4.810962e-05	-7.039729e-01	4.179297e-03	-2.082951e-03	-2.096346e-03
5.444759308336864e-07	1.471818e+01	-7.360038e+00	-7.358142e+00	4.040298e+00	-1.069918e-05	-1.235888e-05	2.218745e+01	2.207634e+01	-1.881658e-03	1.377980e-05	2.598061e-01	1.500000e+01	1.097551e-05	-6.605992e-01	4.782451e-03	-2.384485e-03	-2.397966e-03
5.447943829469747e-07	1.476807e+01	-7.384504e+00	-7.383569e+00	4.048193e+00	7.273251e-06	1.211010e-06	2.219164e+01	2.215174e+01	-8.335196e-04	1.018129e-04	2.594247e-01	1.500002e+01	1.674856e-04	-4.400305e-01	5.017201e-03	-2.501849e-03	-2.515352e-03
5.449105546727078e-07	1.477850e+01	-7.389415e+00	-7.389089e+00	4.053818e+00	1.939949e-05	1.061377e-05	2.219415e+01	2.216769e+01	-2.267810e-04	9.897016e-05	2.592146e-01	1.500002e+01	2.577253e-04	-3.076665e-01	5.103013e-03	-2.544753e-03	-2.558260e-03
5.449997724238826e-07	1.478403e+01	-7.391980e+00	-7.392047e+00	4.058863e+00	2.530079e-05	1.477252e-05	2.219566e+01	2.217614e+01	1.366303e-04	6.955409e-05	2.590606e-01	1.500001e+01	3.112712e-04	-2.286885e-01	5.168951e-03	-2.577722e-03	-2.591229e-03
5.450507766515552e-07	1.478644e+01	-7.393096e+00	-7.393346e+00	4.061962e+00	2.939715e-05	1.806207e-05	2.219637e+01	2.217985e+01	3.175137e-04	6.751729e-05	2.589462e-01	1.500001e+01	3.382301e-04	-1.907471e-01	5.206657e-03	-2.596575e-03	-2.610082e-03
5.451083371733993e-07	1.478863e+01	-7.394099e+00	-7.394530e+00	4.065609e+00	3.156306e-05	1.942032e-05	2.219705e+01	2.218321e+01	4.849584e-04	5.330186e-05	2.588423e-01	1.500001e+01	3.626985e-04	-1.551451e-01	5.249215e-03	-2.617855e-03	-2.631361e-03
5.451637956943793e-07	1.479032e+01	-7.394870e+00	-7.395450e+00	4.069237e+00	3.492141e-05	2.212799e-05	2.219761e+01	2.218582e+01	6.297402e-04	4.923755e-05	2.587131e-01	1.500001e+01	3.842413e-04	-1.258686e-01	5.290225e-03	-2.638360e-03	-2.651865e-03
5.452450991995786e-07	1.479218e+01	-7.395712e+00	-7.396471e+00	4.074718e+00	3.687903e-05	2.329471e-05	2.219824e+01	2.218869e+01	7.942997e-04	3.494870e-05	2.585523e-01	1.500001e+01	4.081902e-04	-9.260394e-02	5.350354e-03	-2.668426e-03	-2.681928e-03
5.453780302914032e-07	1.479417e+01	-7.396599e+00	-7.397571e+00	4.083961e+00	4.094196e-05	2.643082e-05	2.219896e+01	2.219177e+01	9.990832e-04	2.637517e-05	2.582476e-01	1.500000e+01	4.383455e-04	-5.474847e-02	5.448678e-03	-2.717591e-03	-2.731087e-03
5.455213104714054e-07	1.479533e+01	-7.397104e+00	-7.398228e+00	4.094166e+00	4.197354e-05	2.680498e-05	2.219939e+01	2.219357e+01	1.137590e-03	1.393229e-05	2.579403e-01	1.500000e+01	4.581934e-04	-3.201118e-02	5.554667e-03	-2.770589e-03	-2.784078e-03
5.456819335621311e-07	1.479603e+01	-7.397397e+00	-7.398632e+00	4.105747e+00	4.394023e-05	2.830208e-05	2.219965e+01	2.219467e+01	1.247665e-03	1.255317e-05	2.575643e-01	1.500000e+01	4.741701e-04	-1.842994e-02	5.673493e-03	-2.830007e-03	-2.843486e-03
5.458417672815359e-07	1.479638e+01	-7.397536e+00	-7.398849e+00	4.117342e+00	4.350125e-05	2.753024e-05	2.219976e+01	2.219524e+01	1.319661e-03	6.206280e-06	2.572144e-01	1.500000e+01	4.840811e-04	-1.275603e-02	5.791739e-03	-2.889135e-03	-2.902604e-03
5.460568164941499e-07	1.479667e+01	-7.397637e+00	-7.399035e+00	4.132967e+00	4.459066e-05	2.827705e-05	2.219983e+01	2.219572e+01	1.406548e-03	8.753538e-06	2.567126e-01	1.500000e+01	4.964050e-04	-9.122603e-03	5.950837e-03	-2.968692e-03	-2.982146e-03
